
**** 03/09/17 19:25:49 ****** PSpice 16.5.0 (April 2011) ****** ID# 0 ********

 ** Profile: "SCHEMATIC1-Resposta temporal"  [ C:\Users\j.mendez.orero\Desktop\Practica1\practica1-pspicefiles\schematic1\resposta te


 ****     CIRCUIT DESCRIPTION


******************************************************************************




** Creating circuit file "Resposta temporal.cir" 
** WARNING: THIS AUTOMATICALLY GENERATED FILE MAY BE OVERWRITTEN BY SUBSEQUENT SIMULATIONS

*Libraries: 
* Profile Libraries :
* Local Libraries :
* From [PSPICE NETLIST] section of C:\Cadence\SPB_16.5\tools\PSpice\PSpice.ini file:
.lib "nom.lib" 

*Analysis directives: 
.TRAN  0 15us  0 75us 
.PROBE V(alias(*)) I(alias(*)) W(alias(*)) D(alias(*)) NOISE(alias(*)) 
.INC "..\SCHEMATIC1.net" 



**** INCLUDING SCHEMATIC1.net ****
* source PRACTICA1
X_U1         0 N00443 VCC VEE N00356 uA741
R_R1         N00524 N00443  1k TC=0,0 
R_R2         N00443 N00356  1k TC=0,0 
R_R5         0 N00356  10k TC=0,0 
V_Vee         0 VEE 15Vdc
V_Vcc         VCC 0 15Vdc
V_V1         N00524 0  
+PULSE 0 -1V 1us 1ps 1ps 10us 50us

**** RESUMING "Resposta temporal.cir" ****
.END

**** 03/09/17 19:25:49 ****** PSpice 16.5.0 (April 2011) ****** ID# 0 ********

 ** Profile: "SCHEMATIC1-Resposta temporal"  [ C:\Users\j.mendez.orero\Desktop\Practica1\practica1-pspicefiles\schematic1\resposta te


 ****     Diode MODEL PARAMETERS


******************************************************************************




               X_U1.dx         X_U1.dy         
          IS  800.000000E-18  800.000000E-18 
          RS    1               1.000000E-03 
         CJO                   10.000000E-12 


**** 03/09/17 19:25:49 ****** PSpice 16.5.0 (April 2011) ****** ID# 0 ********

 ** Profile: "SCHEMATIC1-Resposta temporal"  [ C:\Users\j.mendez.orero\Desktop\Practica1\practica1-pspicefiles\schematic1\resposta te


 ****     BJT MODEL PARAMETERS


******************************************************************************




               X_U1.qx         
               NPN             
       LEVEL    1            
          IS  800.000000E-18 
          BF   93.75         
          NF    1            
          BR    1            
          NR    1            
         ISS    0            
          RE    0            
          RC    0            
         CJE    0            
         VJE     .75         
         CJC    0            
         VJC     .75         
         MJC     .33         
        XCJC    1            
         CJS    0            
         VJS     .75         
          KF    0            
          AF    1            
          CN    2.42         
           D     .87         


**** 03/09/17 19:25:49 ****** PSpice 16.5.0 (April 2011) ****** ID# 0 ********

 ** Profile: "SCHEMATIC1-Resposta temporal"  [ C:\Users\j.mendez.orero\Desktop\Practica1\practica1-pspicefiles\schematic1\resposta te


 ****     INITIAL TRANSIENT SOLUTION       TEMPERATURE =   27.000 DEG C


******************************************************************************



 NODE   VOLTAGE     NODE   VOLTAGE     NODE   VOLTAGE     NODE   VOLTAGE


(  VCC)   15.0000  (  VEE)  -15.0000  (N00356) 118.3E-06 (N00443) 19.25E-06     

(N00524)    0.0000 (X_U1.6)-13.07E-09 (X_U1.7) 123.8E-06 (X_U1.8) 123.8E-06     

(X_U1.9)    0.0000 (X_U1.10)    -.6077                   (X_U1.11)   14.9600    

(X_U1.12)   14.9600                   (X_U1.13)    -.5938                       

(X_U1.14)    -.5938                   (X_U1.53)   14.0000                       

(X_U1.54)  -14.0000                   (X_U1.90) 110.8E-06                       

(X_U1.91)   40.0000                   (X_U1.92)  -40.0000                       

(X_U1.99)    0.0000                   




    VOLTAGE SOURCE CURRENTS
    NAME         CURRENT

    V_Vee       -1.667E-03
    V_Vcc       -1.667E-03
    V_V1         1.925E-08
    X_U1.vb     -1.307E-13
    X_U1.vc      1.400E-11
    X_U1.ve      1.455E-11
    X_U1.vlim    1.108E-07
    X_U1.vlp    -4.000E-11
    X_U1.vln    -4.000E-11

    TOTAL POWER DISSIPATION   5.00E-02  WATTS



          JOB CONCLUDED

**** 03/09/17 19:25:49 ****** PSpice 16.5.0 (April 2011) ****** ID# 0 ********

 ** Profile: "SCHEMATIC1-Resposta temporal"  [ C:\Users\j.mendez.orero\Desktop\Practica1\practica1-pspicefiles\schematic1\resposta te


 ****     JOB STATISTICS SUMMARY


******************************************************************************



  Total job time (using Solver 1)   =         .05
